#Digilent WaveForms Network Analyzer - Bode
#Device Name: Discovery2
#Serial Number: DEMO
#Date Time: 2023-03-10 15:05:10.086
#Start: 10 Hz
#Stop: 10000 Hz
#Steps: 1001
#Wavegen: Wavegen C1
#Amplification: 1 X
#Settle: 10 ms
#MinPeriods: 16 
#Channel: Channel 1
#Range: 5.53587 V
#Offset: 3.25771e-05 V
#Relative: no
#Channel: Channel 2
#Range: 5.51007 V
#Offset: 0.000229542 V
#Relative: yes
#Wavegen Channel 1: Enabled
#Mode: Simple
#Type: Lydsignal_106.wav
#Frequency: 44.1 kHz
#Period: 22.675737 us
#Amplitude: 1 V
#Offset: 0 V

#Frequency (Hz),Channel 1 Magnitude (dB),Channel 2 Magnitude (dB),Channel 2 Phase (deg)
10.00000000000001,0.01161930257242545,-1.049304575805981,-13.13152568816802
10.06931668851806,0.01151187533155789,-1.052644539122146,-13.22250728670556
10.1391138573668,0.01180749545992051,-1.055986891655493,-13.30335594277751
10.20939483707681,0.01174122561489086,-1.05861394787331,-13.38773895765692
10.28016298126474,0.0118949811697266,-1.062106627373837,-13.4753519031706
10.35142166679345,0.01185172493388356,-1.065824651660352,-13.56454857706716
10.42317429393305,0.01192540711644962,-1.068995955215272,-13.65517400924999
10.49542428652323,0.01198391744902589,-1.072461791295738,-13.74508115474947
10.5681750921366,0.01205962120619501,-1.076393761525923,-13.83886832470338
10.64143018224317,0.01184866136821758,-1.079680461206821,-13.93120048804732
10.71519305237607,0.01188418479078863,-1.083207895283368,-14.0234273639559
10.7894672222983,0.01192479886539126,-1.087135856619775,-14.11442084010125
10.86425623617067,0.012248084982465,-1.090873324670352,-14.208052530679
10.93956366272095,0.01179037952737538,-1.094360800450407,-14.30292734082357
11.01539309541416,0.01191464544875671,-1.098709819756054,-14.39898481266817
11.09174815262402,0.01181554457888672,-1.102445634977575,-14.49425536873854
11.16863247780562,0.01201958258550059,-1.106686184450175,-14.59175506931125
11.24604973966928,0.01173073667004459,-1.110276933090647,-14.68842445420479
11.32400363235558,0.01169960988738301,-1.114157628749007,-14.78665686782986
11.4024978756117,0.01153755612668968,-1.118520273801143,-14.88738845600565
11.48153621496884,0.01157434401712304,-1.122748131569716,-14.98798543753264
11.56112242192101,0.01170747364519186,-1.127367268636066,-15.08893135187895
11.64126029410492,0.01183679777332523,-1.131574960029016,-15.18702365945368
11.72195365548131,0.01135040566557102,-1.13540768870069,-15.28203501326067
11.80320635651731,0.0116892711375697,-1.139736160229844,-15.38045534910435
11.8850222743702,0.01154324280169597,-1.143724106895367,-15.47926096664972
11.96740531307244,0.01144899423876142,-1.148301962532401,-15.57841337491084
12.05035940371799,0.01168090646265339,-1.152687296801445,-15.68060513494308
12.13388850464979,0.01160319282703874,-1.157164604979382,-15.78079558627243
12.21799660164874,0.01158683159076469,-1.161671459443046,-15.88534294358033
12.30268770812382,0.01163906819202697,-1.166430001587597,-15.98864731328395
12.3879658653037,0.01155180651076076,-1.170822638946324,-16.09223524758869
12.47383514242945,0.01175874416535032,-1.175966322800351,-16.19711474562035
12.56029963694877,0.01188171997648078,-1.180951321310896,-16.30352050744689
12.64736347471152,0.01165624087316634,-1.18555375383801,-16.40931830226116
12.73503081016663,0.01167800182128773,-1.190657107183494,-16.51535529676246
12.82330582656023,0.01181102573764765,-1.195662348619251,-16.62239205746096
12.91219273613536,0.01160034497396235,-1.200810049973819,-16.73159469122018
13.00169578033291,0.01182128466026618,-1.206336672627074,-16.84269223927195
13.09181922999408,0.01152398345688038,-1.211555784460334,-16.9504584484643
13.18256738556409,0.01131583600077575,-1.216583410789563,-17.06080142970709
13.27394457729741,0.01169561836882668,-1.222089737982773,-17.17037429646066
13.36595516546443,0.01159411400281033,-1.227758241959071,-17.28380426624861
13.4586035405595,0.01157604293273862,-1.233068476604191,-17.39513324969991
13.55189412351038,0.01165605727869863,-1.238687597730498,-17.50910917537043
13.64583136588927,0.01166172921367167,-1.244586981928562,-17.62310865561852
13.74041975012516,0.01141840313774675,-1.249865994918311,-17.73395014685971
13.83566378971783,0.01177268543861937,-1.255823756367658,-17.84771381441168
13.93156802945305,0.01144644392567414,-1.261115134431594,-17.96087171562579
14.0281370456196,0.01146411872667945,-1.266819687093694,-18.07486910404416
14.12537544622755,0.0114798777340697,-1.272830183411308,-18.18879988167799
14.22328787122821,0.01113723248494203,-1.278456283250564,-18.30775529677025
14.32187899273545,0.01150667934359028,-1.285157901769095,-18.42571361705493
14.42115351524871,0.01162770070382231,-1.291681510987827,-18.54391330299252
14.52111617587743,0.01163997417913181,-1.297959941157565,-18.66468032722148
14.6217717445672,0.01124239422377828,-1.304269568074488,-18.78465364776861
14.72312502432721,0.01154967907032022,-1.310585595120545,-18.90430958926812
14.82518085145956,0.01145266521492162,-1.316902679635879,-19.02534393450104
14.92794409578998,0.01175424977278299,-1.323670628263335,-19.14224736634279
15.03141966090022,0.01155854155236518,-1.32993106497973,-19.26463065862947
15.1356124843621,0.01159171460902464,-1.336606996308231,-19.38751148367948
15.24052753797292,0.01154146973927367,-1.343525447213899,-19.5097252654742
15.34616982799296,0.01150407736826141,-1.350342815314146,-19.63280726657005
15.45254439538414,0.01146761162653006,-1.35752530558891,-19.75658326755334
15.55965631605077,0.01184899659547189,-1.364426795593686,-19.88297627497025
15.6675107010815,0.01162068756081211,-1.371471104959021,-20.00696892509493
15.7761126969935,0.01111087584272038,-1.37836180382639,-20.13337352937685
15.88546748597779,0.01121971691126334,-1.385793090158238,-20.25959562443765
15.99558028614671,0.01151591655219525,-1.393302382211983,-20.38825445156061
16.10645635178271,0.01157777626039266,-1.400964736109455,-20.51803941575217
16.21810097358932,0.01138825660414866,-1.408571444023529,-20.64900564105459
16.33051947894334,0.01137835079909426,-1.41659393241909,-20.77932955334506
16.44371723214933,0.01113059359051585,-1.424135974672667,-20.909041368979
16.55769963469529,0.01122071651422968,-1.431963733443995,-21.03821556294727
16.67247212551064,0.01145008814795937,-1.439919464020297,-21.17007953575801
16.78804018122561,0.01138877033339053,-1.447696804030674,-21.30034391828502
16.90440931643265,0.01128288125258428,-1.455650339557359,-21.43376462184183
17.02158508394952,0.01156892621267078,-1.464124966416366,-21.56761612457996
17.13957307508427,0.01117622502722659,-1.472063977979935,-21.70009719759187
17.25837891990204,0.01128030953653918,-1.480498365684206,-21.83684123506535
17.37800828749376,0.01159800319822839,-1.489430142693166,-21.97293687729009
17.49846688624658,0.01146088237896049,-1.498020428701341,-22.10771813980375
17.61976046411631,0.01143912310600851,-1.506607197610432,-22.24233014045691
17.74189480890166,0.01135914596179817,-1.515634916385653,-22.38380501195595
17.86487574852051,0.01134028197369078,-1.524391361791763,-22.5235834322382
17.98870915128789,0.0116572219830696,-1.533464579069629,-22.65925210944343
18.11340092619604,0.01151610314388364,-1.542583088216987,-22.80166257858927
18.23895702319638,0.01123030055257353,-1.551854896483935,-22.94188151031621
18.36538343348347,0.01155601506645358,-1.56163804339581,-23.08353085428601
18.4926861897808,0.01126559602749047,-1.571188844772395,-23.2274552813615
18.62087136662869,0.01135491208442431,-1.580689989443393,-23.37149757358489
18.74994508067419,0.01132155474040523,-1.590616548412289,-23.51355907916889
18.87991349096295,0.0116160514362843,-1.600387306194617,-23.65744256171108
19.01078279923302,0.01144651861590971,-1.60989034843813,-23.80152084873816
19.14255925021088,0.0114700118690711,-1.619893802976565,-23.94523851187627
19.27524913190937,0.01153063883603508,-1.629952091552392,-24.09021787847125
19.40885877592779,0.01160967387265178,-1.639897518713292,-24.23321913210979
19.54339455775396,0.01156558454782162,-1.650225140384765,-24.38041834809889
19.67886289706847,0.01131390996352214,-1.660121546391639,-24.52538544694401
19.81527025805099,0.01130309083853385,-1.670797979626569,-24.67285518814882
19.95262314968881,0.01143052230330595,-1.68134721626894,-24.82192624986497
20.0909281260873,0.01145006574475135,-1.692001820750982,-24.97097891824423
20.23019178678274,0.01155673593357257,-1.70299272772006,-25.12030841699057
20.37042077705719,0.01133233886887641,-1.714300698275996,-25.27158844855311
20.51162178825567,0.01150882502878138,-1.72532154071253,-25.4223049697427
20.65380155810531,0.01143219697396726,-1.736393572528252,-25.57434499949753
20.79696687103698,0.01149057584730166,-1.747768843859316,-25.72695679234562
20.94112455850894,0.01136197073669938,-1.759135754200473,-25.87929434285978
21.08628149933291,0.01129185612972107,-1.77054482623967,-26.03168830421606
21.23244462000221,0.01138673390678089,-1.782602739536754,-26.1881572595435
21.37962089502235,0.0115004210614542,-1.794133096577164,-26.34274093914603
21.52781734724374,0.01157377333378205,-1.806502874439654,-26.50031832637063
21.67704104819696,0.01147769517381228,-1.81876118625616,-26.65583946080237
21.82729911843003,0.01135750501564589,-1.830732613154251,-26.81224712014848
21.97859872784828,0.01137585768081582,-1.84321442246929,-26.97009618643011
22.13094709605638,0.0114221601868537,-1.855691116333919,-27.1277711749425
22.28435149270305,0.01158098310751969,-1.868259647873431,-27.28683829414989
22.43881923782768,0.01145095849391215,-1.881109157537965,-27.44639250968301
22.59435770220981,0.01102998789294042,-1.893817006524414,-27.60443825352291
22.75097430772071,0.01152143809998192,-1.907465881166508,-27.76423156944475
22.90867652767774,0.01127103841120014,-1.920403282412634,-27.92675454151377
23.06747188720071,0.01111363135816406,-1.933926673442917,-28.08933133110442
23.2273679635711,0.01134733158606884,-1.947495471879089,-28.25105793728021
23.38837238659356,0.01139249261969977,-1.961296497210846,-28.4139581611978
23.55049283896011,0.01153122555197807,-1.974925194014464,-28.57964212028789
23.71373705661658,0.01120993775154472,-1.988418604581553,-28.74287453304915
23.87811282913181,0.01135472413752294,-2.002776169846158,-28.90946799971267
24.04362800006935,0.01134274841764801,-2.01707119722218,-29.07404207980562
24.2102904673618,0.01118111411416787,-2.031310680407431,-29.24120035627308
24.37810818368755,0.01135731054236654,-2.046009455911378,-29.40542512000882
24.54708915685034,0.01147671797259665,-2.060972265575699,-29.57486570645563
24.71724145016132,0.01135626102408068,-2.075339274795018,-29.74072230203973
24.88857318282393,0.01134484388069629,-2.090299433083262,-29.90783733244312
25.06109253032117,0.01107214290879494,-2.105474143774793,-30.07846253655285
25.23480772480578,0.01127687957599619,-2.120839893941592,-30.24855219813149
25.40972705549306,0.01129383963837673,-2.136135938444035,-30.41852733598895
25.58585886905648,0.0111324488068533,-2.151880383640643,-30.58941174098186
25.76321157002578,0.01143839011609017,-2.167624564314993,-30.76019857474257
25.94179362118818,0.01146250770205973,-2.183431164874088,-30.93326873319276
26.12161354399208,0.01142311593237882,-2.199437624723843,-31.10473754903629
26.30267991895384,0.0113407188679326,-2.215791679263716,-31.27726908624334
26.48500138606704,0.01156230862747004,-2.232357985672039,-31.45145776710243
26.66858664521483,0.01136333844303741,-2.248631593546586,-31.62651283266628
26.85344445658509,0.01146791960116122,-2.265777199436205,-31.79967196288169
27.03958364108846,0.01112038321924342,-2.282280548010592,-31.97413059146508
27.22701308077915,0.01133113398364428,-2.298918825457112,-32.14749482493265
27.41574171927887,0.0113065283270262,-2.316169622476832,-32.32370691753404
27.60577856220348,0.0113739630491829,-2.333503722330263,-32.50191642455856
27.79713267759291,0.01150523714121939,-2.351195822907188,-32.67617320463043
27.98981319634366,0.01134932185611653,-2.36891347651312,-32.85405542225897
28.18382931264458,0.01138621203789105,-2.386648832654148,-33.03438979926599
28.37919028441558,0.01164036511148656,-2.4047915534446,-33.20966203474175
28.57590543374949,0.01145266431932694,-2.422909943488798,-33.38936443018615
28.77398414735673,0.01158081236582637,-2.441152513089872,-33.56914104928126
28.97343587701327,0.01114581161578531,-2.45921993698482,-33.74942339854374
29.17427014001169,0.01125134780856077,-2.478212869573683,-33.92774137035544
29.37649651961533,0.01133031236171836,-2.497322849239561,-34.10782380020262
29.58012466551549,0.01126401394368249,-2.516132802510064,-34.29025098356595
29.78516429429194,0.0114286829122701,-2.535407250585745,-34.46935139916776
29.99162518987653,0.01124672710063795,-2.554549259286078,-34.6527188447634
30.19951720402019,0.01163945077910419,-2.574505527279372,-34.83237170477037
30.40885025676283,0.01125538874828787,-2.593894436807935,-35.01766599504606
30.61963433690682,0.01132318440704518,-2.614206716077942,-35.20137731295915
30.83187950249356,0.01142649703752373,-2.634474683452593,-35.3846953957399
31.04559588128359,0.01110403299720292,-2.65441483149318,-35.56844866666601
31.26079367123959,0.01131065949089193,-2.674929063077607,-35.75289703831174
31.47748314101321,0.01137170764067067,-2.695689134563821,-35.93793545072691
31.69567463043494,0.01122860967853833,-2.716212260502559,-36.12170685659406
31.91537855100765,0.01151161671396987,-2.737366134070815,-36.30603429770147
32.13660538640321,0.01110876011333062,-2.758495940232593,-36.49418149969654
32.35936569296288,0.0112484426203384,-2.780029483515186,-36.67982546041805
32.5836701002009,0.01133812406442377,-2.801458918833002,-36.8665443474531
32.80952931131191,0.01132645602047504,-2.823515693923069,-37.05338845404583
33.03695410368152,0.01129907018974706,-2.845255233430056,-37.24027015963672
33.26595532940047,0.01138362172137246,-2.867343107233235,-37.42894339493023
33.49654391578279,0.01135982104867675,-2.889457204417433,-37.61498236402359
33.72873086588689,0.01153538092180802,-2.912397624034708,-37.80324823509991
33.96252725904089,0.011274800157224,-2.93501778364291,-37.99343929188599
34.19794425137091,0.01137788605801352,-2.957584437324015,-38.17972292086365
34.43499307633387,0.0114168802228039,-2.980527888008982,-38.367862154116
34.67368504525317,0.01115646054931354,-3.003543451798353,-38.55840703010746
34.91403154785866,0.0112685551098287,-3.0270235439946,-38.74927384201135
35.15604405282983,0.01119180017072177,-3.050494385209952,-38.9410344157975
35.3997341083435,0.01144900006177898,-3.074656571077949,-39.12788212151771
35.64511334262443,0.01120855963359875,-3.098285122606387,-39.31851220289307
35.89219346450057,0.01152024977410681,-3.122958411060104,-39.51012419392477
36.14098626396135,0.01131636316860141,-3.147254098761419,-39.69785447206942
36.39150361272075,0.01152581252639775,-3.172152223156355,-39.8900191136772
36.64375746478333,0.01140857580866566,-3.196571088657028,-40.08337226580273
36.89775985701508,0.01121953669388849,-3.221609842021463,-40.27406699583761
37.15352290971728,0.0110605829531819,-3.24676227286414,-40.46549842752108
37.41105882720537,0.01137913864602952,-3.272311440709616,-40.65996206342481
37.67037989839089,0.01124896502641554,-3.297843760004586,-40.84996410966227
37.93149849736825,0.01115599573945137,-3.323382904034845,-41.04037552018264
38.19442708400468,0.01100600047403666,-3.349461439040046,-41.23524807333695
38.45917820453539,0.01161020700077617,-3.375798295714117,-41.42625858672858
38.72576449216173,0.01119212550893121,-3.401632454763326,-41.61710118609336
38.99419866765439,0.0113445282876466,-3.428154200830015,-41.81014484491884
39.26449353996001,0.01108644427084079,-3.455028094116816,-42.00416738895854
39.53666200681283,0.01122785443556289,-3.482151326055974,-42.19778231613498
39.81071705534973,0.01116027290772597,-3.509073967073923,-42.39293474702511
40.08667176273034,0.01116733168522467,-3.536817967263389,-42.58302026230751
40.36453929676053,0.01140021593939789,-3.564478873900311,-42.78016308220828
40.64433291652131,0.01096053350201526,-3.592264832497318,-42.97668327562377
40.9260659730011,0.01115109775075328,-3.620637322667817,-43.17057643880435
41.20975190973304,0.01134202282781484,-3.649205795946337,-43.34780048632928
41.49540426343633,0.01122416180637041,-3.67466769348927,-43.5433231791463
41.78303666466222,0.0113785141540004,-3.707192103796243,-43.75541862396045
42.07266283844442,0.01162474487909018,-3.730903499760348,-43.94780960157557
42.36429660495413,0.01148905886243291,-3.761696810934756,-44.1056683146298
42.6579518801593,0.01149673957503238,-3.7939160767819,-44.29301217477769
42.95364267648878,0.01119402653941433,-3.820039906900043,-44.48009755281659
43.25138310350088,0.01119508738431445,-3.844246930151634,-44.73113497066431
43.55118736855688,0.01144845196793307,-3.879546740321935,-44.9617656836146
43.8530697774986,0.01165908095214753,-3.911899816518231,-45.04102827816085
44.1570447353313,0.01155037010508914,-3.946617225999214,-45.35403445123136
44.46312674691089,0.01131424981325548,-3.959352847333414,-45.48183217151343
44.77133041763628,0.01150243939351222,-3.992078470259536,-45.62979109700912
45.08167045414605,0.01153991593515789,-4.028629989044916,-45.79139543329121
45.39416166502037,0.01152734575964084,-4.058357472041312,-45.97793954603017
45.70881896148752,0.01132818838226109,-4.080606872974107,-46.31497038967002
46.02565735813563,0.01188329945456234,-4.140741041412238,-46.49593821198012
46.34469197362884,0.01097708833441793,-4.140851462058789,-46.68990195136519
46.66593803142892,0.01138137847739622,-4.188927390843436,-46.72644832008687
46.98941086052156,0.01173789311119625,-4.236434564761521,-46.97758094408518
47.31512589614807,0.01176680465155645,-4.271028254938166,-47.26159543986898
47.64309868054161,0.01185471060317993,-4.304366013633723,-47.40017571585628
47.97334486366897,0.01158544111744542,-4.325578534752724,-47.50302103655048
48.30588020397728,0.01113540788519552,-4.33112008512207,-47.78474195001216
48.6407205691462,0.01161368047721423,-4.399590164072781,-48.06786478004823
48.97788193684466,0.01082738292493219,-4.39627053863407,-48.1866563117994
49.31738039549364,0.01111083399046928,-4.457343793237924,-48.27559115941717
49.65923214503363,0.01143191637639911,-4.500360427400208,-48.58160543518377
50.00345349769788,0.01151929407507585,-4.532058791151851,-48.81747532496166
50.35006087879053,0.01170023015096235,-4.568372901939526,-48.95939707064672
50.6990708274705,0.01138567984607891,-4.589244138463059,-49.03970753301215
51.05049999754065,0.01093686710364915,-4.600750754835937,-49.35089514047505
51.40436515824264,0.01169371435296535,-4.670514350649634,-49.5492804414364
51.76068319505681,0.01097394154502319,-4.66930480565162,-49.73567760977099
52.11947111050811,0.01106415760307836,-4.728062764740669,-49.79790764935088
52.48074602497728,0.01116878624656766,-4.774783370367101,-50.13288403934514
52.84452517751808,0.01117416370600206,-4.806074720454523,-50.37255395371489
53.21082592667948,0.01129467820341911,-4.84640155053316,-50.50204441692178
53.57966575133423,0.01111042496580467,-4.882627512341379,-50.62966525339097
53.95106225151279,0.01087017688803762,-4.894122943476432,-50.73090396355161
54.32503314924336,0.01071679614731414,-4.923114784191831,-51.16725465571304
54.70159628939721,0.01125084934043768,-4.987564488122302,-51.16418071835737
55.08076964054041,0.0109170466520946,-5.00960981046898,-51.56108549273443
55.4625712957911,0.01070119671708128,-5.024781833502075,-51.63132203378529
55.84701947368313,0.01113698593766948,-5.074039022246541,-51.70203086606957
56.23413251903497,0.01092711263058015,-5.102760917386937,-51.99622102771978
56.62392890382534,0.01086883451699265,-5.141807814929388,-52.22353339090882
57.01642722807478,0.01127632364536723,-5.185270367973035,-52.44128783837189
57.4116462207328,0.01124057656995532,-5.243821724374833,-52.56057254337375
57.80960474057186,0.01057265574242273,-5.256970642157173,-52.6963543531139
58.21032177708716,0.01113499472363032,-5.315772825795891,-52.96023408257156
