#Digilent WaveForms Network Analyzer - Bode
#Device Name: Discovery2
#Serial Number: SN:210321B3D979
#Date Time: 2023-03-10 14:15:55.451
#Start: 10 Hz
#Stop: 10000 Hz
#Steps: 1001
#Wavegen: Wavegen C1
#Amplification: 1 X
#Settle: 10 ms
#MinPeriods: 16 
#Channel: Channel 1
#Range: 5.53587 V
#Offset: 3.25771e-05 V
#Relative: no
#Channel: Channel 2
#Range: 5.51007 V
#Offset: 0.000229542 V
#Relative: yes
#Wavegen Channel 1: Running
#Mode: Simple
#Type: Lydsignal_106.wav
#Frequency: 44.1 kHz
#Period: 22.675737 us
#Amplitude: 1 V
#Offset: 0 V

#Frequency (Hz),Channel 1 Magnitude (dB),Channel 2 Magnitude (dB),Channel 2 Phase (deg)
10.00000000000001,0.01134607603666616,-0.00916421684706702,-0.143261907271274
10.06931668851806,0.01148973797701318,-0.009118896639468667,-0.1459679498834419
10.1391138573668,0.01159440266552321,-0.00929945661050135,-0.1471402325805258
10.20939483707681,0.01156582797320496,-0.009289315148926773,-0.1472267317771205
10.28016298126474,0.01150899701633601,-0.009105459777592632,-0.1483979408551903
10.35142166679345,0.0114471472722599,-0.009070051979801638,-0.1512900248471354
10.42317429393305,0.01150770836784693,-0.00894148184258838,-0.1510835259446281
10.49542428652323,0.01149579340199578,-0.00891961614470475,-0.1532938941811324
10.5681750921366,0.0113704483520015,-0.008921559354649996,-0.1526432889501237
10.64143018224317,0.0113347157360191,-0.008977295353624994,-0.1534541165945029
10.71519305237607,0.01157249526627236,-0.009133665837847136,-0.155046407978034
10.7894672222983,0.01126415594108352,-0.008783987139109026,-0.1558481024124774
10.86425623617067,0.01130392421402748,-0.008776365039952305,-0.1579033061486825
10.93956366272095,0.01129269834358788,-0.008835905023117624,-0.158449342814329
11.01539309541416,0.01125328991952687,-0.00886591422565779,-0.158483937582595
11.09174815262402,0.01121796010893189,-0.009087371513559294,-0.1601522310193388
11.16863247780562,0.01124949453781787,-0.008991751178336241,-0.1615936175010297
11.24604973966928,0.01114508621307867,-0.00888739526607963,-0.1623407650440924
11.32400363235558,0.01125625912795368,-0.008946371334282034,-0.1628351766182732
11.4024978756117,0.01120263172568128,-0.008986061116714975,-0.1647020402711454
11.48153621496884,0.01111028094093166,-0.009064384564481371,-0.1644085172651018
11.56112242192101,0.01098201505741666,-0.008804836013047702,-0.1666176060838502
11.64126029410492,0.0112313077919942,-0.00878435101698985,-0.1681441441914728
11.72195365548131,0.01134460380210725,-0.00930803701914408,-0.169004552302443
11.80320635651731,0.01146528754678033,-0.009105505142407828,-0.1707222272107174
11.8850222743702,0.01136605546399691,-0.009053849971023993,-0.1717779982849663
11.96740531307244,0.01135350030170173,-0.008990096008866945,-0.1718429402773154
12.05035940371799,0.01139230491988617,-0.009098191121989931,-0.1732439682744626
12.13388850464979,0.01123328895908075,-0.009227120933513803,-0.1757180998456249
12.21799660164874,0.01104914144950147,-0.009015421091455955,-0.1759068580644083
12.30268770812382,0.01130966120272565,-0.008980468645288103,-0.1782368026973558
12.3879658653037,0.01115769911625246,-0.008972878183895271,-0.1783827363612716
12.47383514242945,0.01130453563631357,-0.009076800945323959,-0.1807469527501198
12.56029963694877,0.01105006774227724,-0.008903435909141902,-0.1810048776666093
12.64736347471152,0.01110505509439134,-0.008794126257164627,-0.183149142546057
12.73503081016663,0.01101253083188715,-0.009030603143860162,-0.1829979780887925
12.82330582656023,0.01106832480500354,-0.008974134684735596,-0.1840529217055433
12.91219273613536,0.01119834136806749,-0.009061540750213233,-0.1855643378871719
13.00169578033291,0.01142797310915162,-0.009318517147854501,-0.1884590263263597
13.09181922999408,0.01155341400474516,-0.00927315360627182,-0.1886527629900172
13.18256738556409,0.01144060530176937,-0.009219692329414652,-0.1898599945891561
13.27394457729741,0.0112065197106618,-0.008838400298059807,-0.192687913718828
13.36595516546443,0.01135611582267874,-0.008671086431272524,-0.1921664365038396
13.4586035405595,0.01133957417541388,-0.008955190934069403,-0.1946166916959413
13.55189412351038,0.01132846812993819,-0.009226838569430733,-0.1964815522423464
13.64583136588927,0.01137160045147379,-0.009260207538440954,-0.1975139422487757
13.74041975012516,0.01127538841835214,-0.008911107491979434,-0.1975429928173185
13.83566378971783,0.01136958945333959,-0.008912419370900392,-0.1994623427649316
13.93156802945305,0.01126852718563975,-0.008886173853393091,-0.1997391548054424
14.0281370456196,0.01136855314690394,-0.009185341429506843,-0.2028811800276458
14.12537544622755,0.0112139139988263,-0.008872982308906997,-0.2027523962864031
14.22328787122821,0.01136920165436785,-0.009220043095774226,-0.2059033043825735
14.32187899273545,0.01148722187281942,-0.009055148840890797,-0.2053627031573058
14.42115351524871,0.01141852658699115,-0.00903544147571813,-0.208064635524579
14.52111617587743,0.01150442230339361,-0.009138729052036141,-0.2105111514526286
14.6217717445672,0.01097251620765631,-0.008918807735125848,-0.2115100812771118
14.72312502432721,0.01115898502155773,-0.009062516451058189,-0.2120188782657522
14.82518085145956,0.01128978809308274,-0.009284972460127964,-0.2137557213700063
14.92794409578998,0.01129298349747878,-0.008931401039977077,-0.2146592508507297
15.03141966090022,0.01150861461359187,-0.009292500142682484,-0.2169069486085249
15.1356124843621,0.01100081314216861,-0.008755061124831277,-0.2184836970409112
15.24052753797292,0.01178800974311471,-0.009480688832253101,-0.2189946243889551
15.34616982799296,0.01120486906273386,-0.0087970918131285,-0.2204089494631489
15.45254439538414,0.01154041010450726,-0.009163058708411621,-0.2229934068423631
15.55965631605077,0.01133609923332246,-0.009112702844748374,-0.2248088793022589
15.6675107010815,0.01139015179900109,-0.009278483918461537,-0.2270116859153308
15.7761126969935,0.01120437873025259,-0.009039227442521041,-0.22674719083696
15.88546748597779,0.01135413102330306,-0.009072658516184511,-0.2316454958839103
15.99558028614671,0.01113184040758515,-0.008965046270676926,-0.2319172081420469
16.10645635178271,0.01133028215704055,-0.009317268563313597,-0.2320862750098058
16.21810097358932,0.01154196471704333,-0.009381149239248633,-0.2340531929410758
16.33051947894334,0.01112080472165923,-0.008935785023734526,-0.2356567934901648
16.44371723214933,0.01102667314886775,-0.008816647536980946,-0.23726846066576
16.55769963469529,0.01107850499444969,-0.009122071980079359,-0.2393114211110472
16.67247212551064,0.01140849308801445,-0.009354001273818266,-0.2398316929253781
16.78804018122561,0.01107681769231907,-0.009364635484160796,-0.2433727940453831
16.90440931643265,0.01137463469516365,-0.009473432807926462,-0.2434774294813167
17.02158508394952,0.01119998559819664,-0.008864637764658298,-0.245941629699729
17.13957307508427,0.01127034026654254,-0.009072929046513703,-0.2467134357929819
17.25837891990204,0.01097742180589676,-0.008729457761654003,-0.2486962774746218
17.37800828749376,0.01109652775152969,-0.00900927188124531,-0.2505853493870234
17.49846688624658,0.01115676655308917,-0.0089472260546053,-0.2517540748870033
17.61976046411631,0.01111301864197853,-0.009024268243879094,-0.2538617013126014
17.74189480890166,0.01128853621221102,-0.009017771229760075,-0.2554403378762657
17.86487574852051,0.01136187164819043,-0.009031938563495103,-0.2568888490674937
17.98870915128789,0.01136885772521609,-0.008926089828628995,-0.2590305752563182
18.11340092619604,0.01136013416000571,-0.008980316037287656,-0.2612657480759282
18.23895702319638,0.01137935818156032,-0.009168618208583957,-0.2625732017314277
18.36538343348347,0.01144368917273489,-0.009049149434542327,-0.264709092750735
18.4926861897808,0.0112634524061389,-0.008699659966087804,-0.266979335860654
18.62087136662869,0.01136439087219015,-0.00902310249697451,-0.2688406962076044
18.74994508067419,0.01143355138544046,-0.009132340575905685,-0.2691262219773876
18.87991349096295,0.01141043569104906,-0.009078076908234357,-0.2735421079622995
19.01078279923302,0.01112033872766457,-0.008979161620826541,-0.2730646015678104
19.14255925021088,0.01153641436657146,-0.009313823588875489,-0.2762334879072483
19.27524913190937,0.0111895218848181,-0.008822227764443392,-0.2784412451133846
19.40885877592779,0.01135329378644664,-0.009281251896732401,-0.2796226979258876
19.54339455775396,0.01149999622840365,-0.009216222430699198,-0.2807646151307637
19.67886289706847,0.01138035044371675,-0.009402817792867377,-0.2838335177519014
19.81527025805099,0.01134117035204357,-0.009452492527541014,-0.2854257992111116
19.95262314968881,0.01133221145779258,-0.009370329422898976,-0.2878271855104586
20.0909281260873,0.01125860124201579,-0.009350262423631309,-0.2901480206148257
20.23019178678274,0.01114607529990054,-0.009227146377177437,-0.2900403543275729
20.37042077705719,0.01125890706187202,-0.009282898199032408,-0.2924588319488066
20.51162178825567,0.01136206258120327,-0.00930263289137577,-0.2950622749465879
20.65380155810531,0.01133006313223179,-0.009279287597586873,-0.2978750486427373
20.79696687103698,0.01123131943692279,-0.009289751678605072,-0.2990808584605986
20.94112455850894,0.01146029744632377,-0.009478073706834001,-0.3004764125582255
21.08628149933291,0.01114784594496111,-0.009125875737663526,-0.3037502507734615
21.23244462000221,0.01127337728765081,-0.009574506200294852,-0.3054616410601882
21.37962089502235,0.01150751017144043,-0.009407948546750337,-0.3087076960375299
21.52781734724374,0.01150470918671095,-0.009475149740406821,-0.3108076452002848
21.67704104819696,0.01144081182141453,-0.009419843057118876,-0.3138943204038327
21.82729911843003,0.01142427824270024,-0.009398774474482514,-0.3144858867133564
21.97859872784828,0.01121418910985618,-0.009134905498099912,-0.3159095283672571
22.13094709605638,0.01147600618099268,-0.00939591458352915,-0.3186840215526274
22.28435149270305,0.0112069755488786,-0.009581978980197142,-0.3213150213514115
22.43881923782768,0.01157762774939263,-0.009594327960209594,-0.3229827203324476
22.59435770220981,0.01120597041583105,-0.009588338781282103,-0.325523606071954
22.75097430772071,0.01128796845492462,-0.009524715960142168,-0.3273747581702366
22.90867652767774,0.01146783970288639,-0.009795753518673265,-0.3296209928600859
23.06747188720071,0.01146547880911527,-0.009434452684073625,-0.3321907430606217
23.2273679635711,0.01110797306482364,-0.00955287541097825,-0.3351309201154606
23.38837238659356,0.01142521925291857,-0.009747294978078773,-0.3376245219015459
23.55049283896011,0.01134775130752904,-0.009582409122969036,-0.338799879294271
23.71373705661658,0.01132449530372885,-0.009451974057735053,-0.340895217456648
23.87811282913181,0.01144710501129534,-0.009357883911326487,-0.3442188765364449
24.04362800006935,0.01128307173340129,-0.00954469999127644,-0.3454203912520484
24.2102904673618,0.01113046782519458,-0.009434903936006536,-0.348588644170917
24.37810818368755,0.01126386058753999,-0.009247557976094917,-0.3512578668356134
24.54708915685034,0.0109688106383301,-0.009406058378675622,-0.3537316718918788
24.71724145016132,0.01112780640994906,-0.009243858825202952,-0.3549312530229685
24.88857318282393,0.01114469284357571,-0.009514595615929846,-0.358370696232555
25.06109253032117,0.01139078342275664,-0.009587713284017897,-0.3617396983555565
25.23480772480578,0.01132291785823111,-0.009437535118454346,-0.3640564232018875
25.40972705549306,0.01115772042224439,-0.009534324078182362,-0.3663587419524248
25.58585886905648,0.01149428232262295,-0.009553787827924941,-0.368962943128329
25.76321157002578,0.01135510775873928,-0.009510523714167924,-0.3709346826512387
25.94179362118818,0.01145843840796499,-0.009846412319391479,-0.3743590518177911
26.12161354399208,0.0112662171177853,-0.0097725958796499,-0.3764651589770551
26.30267991895384,0.01156082563248093,-0.009805274124934423,-0.3785558097389128
26.48500138606704,0.01141296087058504,-0.009823177264886832,-0.3823884792381556
26.66858664521483,0.01122375420085674,-0.009762234227432231,-0.3838636980745207
26.85344445658509,0.01127959632974651,-0.009531536032182394,-0.387853544524603
27.03958364108846,0.01158090349595991,-0.009771763042824035,-0.3886104663344554
27.22701308077915,0.0111289487566708,-0.009610912898153275,-0.3917843412123005
27.41574171927887,0.01134682394074773,-0.009648524669324667,-0.3946399366172315
27.60577856220348,0.01121786150088777,-0.009516019775038432,-0.3986446384077809
27.79713267759291,0.01122785821126318,-0.00969450126257794,-0.3999832685729245
27.98981319634366,0.01147509060184849,-0.009756992109046412,-0.4022493614928067
28.18382931264458,0.01112820776168253,-0.009820865056619374,-0.4047490653532151
28.37919028441558,0.01128430525049036,-0.009802409121913418,-0.4076953534191148
28.57590543374949,0.01135882539520706,-0.009735041384808565,-0.411941934474477
28.77398414735673,0.01142874010938066,-0.009807172081282003,-0.4150268663085512
28.97343587701327,0.01119227699388405,-0.009900019639600736,-0.4151398871267418
29.17427014001169,0.01122341250432989,-0.009717523173816715,-0.4213889580996337
29.37649651961533,0.01112501716919639,-0.009510987850372937,-0.423617880047729
29.58012466551549,0.01140736416662158,-0.009912115682373249,-0.4244085911939237
29.78516429429194,0.01145310140681037,-0.009890883061869258,-0.4283534862543377
29.99162518987653,0.0115474726993677,-0.009921233714589842,-0.4328572733390672
30.19951720402019,0.011821490236706,-0.01019506565871853,-0.4354804787357409
30.40885025676283,0.01160154190920353,-0.009990913965755174,-0.4385723987484766
30.61963433690682,0.01173331815010018,-0.009954316818872799,-0.4404839822731788
30.83187950249356,0.01160462355459536,-0.009925873281605813,-0.4432118640724454
31.04559588128359,0.01152343436042452,-0.01009300813515042,-0.4481033788450191
31.26079367123959,0.01128793513569007,-0.009802821895549728,-0.4482944918186291
31.47748314101321,0.01150383433375069,-0.01007523429013278,-0.4539540076716264
31.69567463043494,0.01119383252606749,-0.009798332166829357,-0.4567186464136714
31.91537855100765,0.01152631144932359,-0.01001491312895946,-0.4580862112078421
32.13660538640321,0.01156508492874419,-0.009902360630139972,-0.4621078193514876
32.35936569296288,0.01127079634081171,-0.009839439140458478,-0.4654762666969283
32.5836701002009,0.01136931445562094,-0.009718553012813783,-0.4681098023453103
32.80952931131191,0.01138411582820086,-0.00989310411554283,-0.4723739916998682
33.03695410368152,0.0115195984848865,-0.009871778448158959,-0.4733413094446348
33.26595532940047,0.01156718119625009,-0.01003461013387121,-0.4766322833164338
33.49654391578279,0.01146049254751726,-0.009716980728376198,-0.4816531528617034
33.72873086588689,0.01159258472915407,-0.009767805701830005,-0.4852882336498823
33.96252725904089,0.01154973836128805,-0.009526953590833734,-0.4885027650347951
34.19794425137091,0.0112920603916115,-0.00972594650924162,-0.4920964491177244
34.43499307633387,0.01163814635811065,-0.01010667097339671,-0.4953556750714512
34.67368504525317,0.01143666540623422,-0.009925153010319005,-0.4986818358585481
34.91403154785866,0.01143975116144483,-0.009606246581700294,-0.5029568853765483
35.15604405282983,0.01143748334974279,-0.009814152942487095,-0.5056178720600002
35.3997341083435,0.01154889571931783,-0.01013943617436293,-0.5090829727994048
35.64511334262443,0.01161116363243463,-0.01025735724023065,-0.5134592263871411
35.89219346450057,0.01147652437754901,-0.009641564126165883,-0.5165057320930515
36.14098626396135,0.01131238154250624,-0.009710774142138405,-0.5193516157932794
36.39150361272075,0.01145728737838275,-0.009900064481995888,-0.5234417183891367
36.64375746478333,0.01149119366920394,-0.00986863802172498,-0.5276792319059069
36.89775985701508,0.01139807753023043,-0.009926306330716807,-0.5306950977828606
37.15352290971728,0.01146347862858678,-0.009846128856867609,-0.5340017751226966
37.41105882720537,0.01141056494881534,-0.009756839686383034,-0.5387760629376643
37.67037989839089,0.01163319896120072,-0.01001647058030976,-0.5414249526241068
37.93149849736825,0.01137182874390335,-0.009903195872513725,-0.5459991535775828
38.19442708400468,0.01128383797640072,-0.009887816987667254,-0.5493409371982665
38.45917820453539,0.01128686031281936,-0.009959247774382811,-0.5528704919311309
38.72576449216173,0.01138927516938167,-0.0102006451145783,-0.5555565851346991
38.99419866765439,0.01128261198766549,-0.01000659793702313,-0.5594029035869426
39.26449353996001,0.0114164681785338,-0.01035035969684232,-0.5650695581824721
39.53666200681283,0.01127477123717428,-0.009887929253711467,-0.567148060616276
39.81071705534973,0.0112553347333113,-0.009990512768094406,-0.5718176715119796
40.08667176273034,0.01134181128345402,-0.01004975968621219,-0.5743432325586042
40.36453929676053,0.01158002232608957,-0.01016105568793992,-0.579350633514828
40.64433291652131,0.01162854502155595,-0.01004199373060997,-0.5852254458363468
40.9260659730011,0.01146010343258752,-0.01038900926972976,-0.5877794805245458
41.20975190973304,0.01150417175240974,-0.01028482108955413,-0.5926714020841786
41.49540426343633,0.01139100420399331,-0.01023808229947414,-0.596195484191508
41.78303666466222,0.0114985317083202,-0.01011194381794089,-0.5994390408987726
42.07266283844442,0.0113834235681767,-0.01020063642518257,-0.6043736896286305
42.36429660495413,0.01179354095662048,-0.0105436324676007,-0.6084032016030534
42.6579518801593,0.01167762526110777,-0.01052557453003759,-0.6137203552856221
42.95364267648878,0.01160716987990674,-0.01052598186833835,-0.6172694696047962
43.25138310350088,0.01164522824594542,-0.01066360635500207,-0.6211331811807383
43.55118736855688,0.01158103160955446,-0.01026216488380714,-0.6233932445406651
43.8530697774986,0.01133491353330065,-0.01025667465287838,-0.6322263228308707
44.1570447353313,0.01165643132054118,-0.01041817379411557,-0.6313411838638245
44.46312674691089,0.01178172909770936,-0.01051645857460066,-0.6376643456344766
44.77133041763628,0.01178758926904757,-0.01060991133192954,-0.6426816802604032
45.08167045414605,0.01175354025571335,-0.01039317643079809,-0.6468600286028305
45.39416166502037,0.0115931244136585,-0.01052149842057573,-0.6489580288771997
45.70881896148752,0.01165785862663816,-0.01030837240892422,-0.6559674386564467
46.02565735813563,0.01145042643503004,-0.009949190044670583,-0.6643343006014639
46.34469197362884,0.01161768441167047,-0.01040403898150609,-0.6626846188913476
46.66593803142892,0.01164786919378543,-0.01073637647416806,-0.6722466353567995
46.98941086052156,0.0113606256199228,-0.0102785445493393,-0.6781988262113714
47.31512589614807,0.01134266911304978,-0.009976455069175057,-0.6821571016026695
47.64309868054161,0.01143409783862536,-0.01029677816907911,-0.6852638109698432
47.97334486366897,0.0116166065721329,-0.01061465134323681,-0.6919506327222678
48.30588020397728,0.01153815358480424,-0.01047162207811281,-0.6900515654581909
48.6407205691462,0.01119971156731157,-0.010259407244566,-0.7003910513034413
48.97788193684466,0.0118845132065136,-0.01088903666951877,-0.7013529580289628
49.31738039549364,0.01184647894499474,-0.01095308149860975,-0.710410766418633
49.65923214503363,0.01153631544472211,-0.01050947853453109,-0.7156277434816189
50.00345349769788,0.01119734111280579,-0.01027752511988311,-0.7197072190029488
50.35006087879053,0.0114746305876684,-0.01041853340603736,-0.7276042680786361
50.6990708274705,0.01193166701118244,-0.01107726446790132,-0.7307885396069764
51.05049999754065,0.01161572823505736,-0.01073861277477082,-0.7318715031540339
51.40436515824264,0.0108590454648589,-0.009848812229023526,-0.7400365323679949
51.76068319505681,0.01163875879502342,-0.01125897537489567,-0.7407868564940259
52.11947111050811,0.01139711823566924,-0.01073786685423043,-0.7514411643194592
52.48074602497728,0.01108291645300947,-0.01016189764089045,-0.7529802147139009
52.84452517751808,0.01096231354130688,-0.01008812612510904,-0.7583471185529618
53.21082592667948,0.0111761282678732,-0.01037985622807064,-0.7621744169481275
53.57966575133423,0.01118313117624035,-0.01059880606898735,-0.7723460047566775
